T5248 000:017.060   SEGGER J-Link V6.86 Log File
T5248 000:017.179   DLL Compiled: Sep 24 2020 17:31:31
T5248 000:017.192   Logging started @ 2020-11-23 07:59
T5248 000:017.204 - 17.210ms
T5248 000:017.220 JLINK_SetWarnOutHandler(...)
T5248 000:017.233 - 0.020ms
T5248 000:017.247 JLINK_OpenEx(...)
T5248 000:019.517   Firmware: J-Link V10 compiled Sep 21 2020 16:57:59
T5248 000:019.700   Decompressing FW timestamp took 136 us
T5248 000:024.146   Hardware: V10.10
T5248 000:024.183   S/N: 600106771
T5248 000:024.201   OEM: SEGGER
T5248 000:024.219   Feature(s): RDI, GDB, FlashDL, FlashBP, JFlash
T5248 000:028.086   TELNET listener socket opened on port 19021
T5248 000:028.332   WEBSRV Starting webserver
T5248 000:028.506   WEBSRV Webserver running on local port 19080
T5248 000:028.534 - 11.293ms returns "O.K."
T5248 000:028.553 JLINK_GetEmuCaps()
T5248 000:028.567 - 0.020ms returns 0xB9FF7BBF
T5248 000:028.582 JLINK_TIF_GetAvailable(...)
T5248 000:029.211 - 0.645ms
T5248 000:029.239 JLINK_SetErrorOutHandler(...)
T5248 000:029.252 - 0.020ms
T5248 000:029.274 JLINK_ExecCommand("ProjectFile = "C:\Users\macanlin\Desktop\GD32F10x_flash\EXP\07.GD32F103C8T6_flash\project\JLinkSettings.ini"", ...). 
T5248 000:037.928 - 8.674ms returns 0x00
T5248 000:037.981 JLINK_ExecCommand("Device = STM32F103C8", ...). 
T5248 000:038.178   Device "STM32F103C8" selected.
T5248 000:038.703 - 0.719ms returns 0x00
T5248 000:038.735 JLINK_GetHardwareVersion()
T5248 000:038.749 - 0.020ms returns 101000
T5248 000:038.764 JLINK_GetDLLVersion()
T5248 000:038.780 - 0.024ms returns 68600
T5248 000:038.800 JLINK_GetOEMString(...)
T5248 000:038.815 JLINK_GetFirmwareString(...)
T5248 000:038.828 - 0.018ms
T5248 000:038.854 JLINK_GetDLLVersion()
T5248 000:038.868 - 0.020ms returns 68600
T5248 000:038.881 JLINK_GetCompileDateTime()
T5248 000:038.892 - 0.017ms
T5248 000:038.910 JLINK_GetFirmwareString(...)
T5248 000:038.923 - 0.019ms
T5248 000:038.939 JLINK_GetHardwareVersion()
T5248 000:038.953 - 0.020ms returns 101000
T5248 000:038.970 JLINK_GetSN()
T5248 000:038.984 - 0.020ms returns 600106771
T5248 000:039.000 JLINK_GetOEMString(...)
T5248 000:039.021 JLINK_TIF_Select(JLINKARM_TIF_SWD)
T5248 000:041.804 - 2.807ms returns 0x00
T5248 000:041.838 JLINK_HasError()
T5248 000:041.857 JLINK_SetSpeed(25000)
T5248 000:042.415 - 0.589ms
T5248 000:042.455 JLINK_GetId()
T5248 000:045.191   Found SW-DP with ID 0x1BA01477
T5248 000:115.379   Found SW-DP with ID 0x1BA01477
T5248 000:120.092   DPIDR: 0x1BA01477
T5248 000:120.131   Scanning AP map to find all available APs
T5248 000:121.368   AP[1]: Stopped AP scan as end of AP map has been reached
T5248 000:121.398   AP[0]: AHB-AP (IDR: 0x24770011)
T5248 000:121.419   Iterating through AP map to find AHB-AP to use
T5248 000:122.715   AP[0]: Core found
T5248 000:122.744   AP[0]: AHB-AP ROM base: 0xE00FF000
T5248 000:123.431   CPUID register: 0x412FC231. Implementer code: 0x41 (ARM)
T5248 000:123.458   Found Cortex-M3 r2p1, Little endian.
T5248 000:226.476   -- Max. mem block: 0x000045C0
T5248 000:226.525   CPU_ReadMem(4 bytes @ 0xE000EDF0)
T5248 000:227.924   CPU_ReadMem(4 bytes @ 0xE0002000)
T5248 000:228.505   FPUnit: 6 code (BP) slots and 2 literal slots
T5248 000:228.529   CPU_ReadMem(4 bytes @ 0xE000EDFC)
T5248 000:229.144   CPU_WriteMem(4 bytes @ 0xE000EDFC)
T5248 000:229.775   CPU_ReadMem(4 bytes @ 0xE0001000)
T5248 000:230.431   CPU_WriteMem(4 bytes @ 0xE0001000)
T5248 000:231.167   CPU_ReadMem(4 bytes @ 0xE000ED88)
T5248 000:231.781   CPU_WriteMem(4 bytes @ 0xE000ED88)
T5248 000:232.487   CPU_ReadMem(4 bytes @ 0xE000ED88)
T5248 000:233.114   CPU_WriteMem(4 bytes @ 0xE000ED88)
T5248 000:233.795   CoreSight components:
T5248 000:233.822   ROMTbl[0] @ E00FF000
T5248 000:233.841   CPU_ReadMem(64 bytes @ 0xE00FF000)
T5248 000:234.537   CPU_ReadMem(32 bytes @ 0xE000EFE0)
T5248 000:235.177   ROMTbl[0][0]: E000E000, CID: B105E00D, PID: 000BB000 SCS
T5248 000:235.202   CPU_ReadMem(32 bytes @ 0xE0001FE0)
T5248 000:235.832   ROMTbl[0][1]: E0001000, CID: B105E00D, PID: 003BB002 DWT
T5248 000:235.897   CPU_ReadMem(32 bytes @ 0xE0002FE0)
T5248 000:236.524   ROMTbl[0][2]: E0002000, CID: B105E00D, PID: 002BB003 FPB
T5248 000:236.555   CPU_ReadMem(32 bytes @ 0xE0000FE0)
T5248 000:237.244   ROMTbl[0][3]: E0000000, CID: B105E00D, PID: 003BB001 ITM
T5248 000:237.270   CPU_ReadMem(32 bytes @ 0xE0040FE0)
T5248 000:237.870   ROMTbl[0][4]: E0040000, CID: B105900D, PID: 003BB923 TPIU-Lite
T5248 000:238.469 - 196.025ms returns 0x1BA01477
T5248 000:238.491 JLINK_GetDLLVersion()
T5248 000:238.504 - 0.019ms returns 68600
T5248 000:238.518 JLINK_CORE_GetFound()
T5248 000:238.531 - 0.019ms returns 0x30000FF
T5248 000:238.546 JLINK_GetDebugInfo(0x100 = JLINKARM_ROM_TABLE_ADDR_INDEX)
T5248 000:238.559   Value=0xE00FF000
T5248 000:238.576 - 0.036ms returns 0
T5248 000:238.615 JLINK_GetDebugInfo(0x100 = JLINKARM_ROM_TABLE_ADDR_INDEX)
T5248 000:238.631   Value=0xE00FF000
T5248 000:238.649 - 0.040ms returns 0
T5248 000:238.662 JLINK_GetDebugInfo(0x101 = JLINKARM_DEBUG_INFO_ETM_ADDR_INDEX)
T5248 000:238.674   Value=0x00000000
T5248 000:238.692 - 0.036ms returns 0
T5248 000:238.706 JLINK_ReadMemEx(0xE0041FF0, 0x10 Bytes, Flags = 0x02000004)
T5248 000:238.735   CPU_ReadMem(16 bytes @ 0xE0041FF0)
T5248 000:239.212   Data:  00 00 00 00 00 00 00 00 00 00 00 00 00 00 00 00
T5248 000:239.235 - 0.534ms returns 16 (0x10)
T5248 000:239.248 JLINK_GetDebugInfo(0x102 = JLINKARM_DEBUG_INFO_MTB_ADDR_INDEX)
T5248 000:239.260   Value=0x00000000
T5248 000:239.278 - 0.036ms returns 0
T5248 000:239.291 JLINK_GetDebugInfo(0x103 = JLINKARM_DEBUG_INFO_TPIU_ADDR_INDEX)
T5248 000:239.303   Value=0xE0040000
T5248 000:239.321 - 0.035ms returns 0
T5248 000:239.333 JLINK_GetDebugInfo(0x104 = JLINKARM_DEBUG_INFO_ITM_ADDR_INDEX)
T5248 000:239.346   Value=0xE0000000
T5248 000:239.364 - 0.036ms returns 0
T5248 000:239.376 JLINK_GetDebugInfo(0x105 = JLINKARM_DEBUG_INFO_DWT_ADDR_INDEX)
T5248 000:239.389   Value=0xE0001000
T5248 000:239.406 - 0.036ms returns 0
T5248 000:239.418 JLINK_GetDebugInfo(0x106 = JLINKARM_DEBUG_INFO_FPB_ADDR_INDEX)
T5248 000:239.431   Value=0xE0002000
T5248 000:239.449 - 0.036ms returns 0
T5248 000:239.462 JLINK_GetDebugInfo(0x107 = JLINKARM_DEBUG_INFO_NVIC_ADDR_INDEX)
T5248 000:239.475   Value=0xE000E000
T5248 000:239.491 - 0.035ms returns 0
T5248 000:239.505 JLINK_GetDebugInfo(0x10C = JLINKARM_DEBUG_INFO_DBG_ADDR_INDEX)
T5248 000:239.517   Value=0xE000EDF0
T5248 000:239.534 - 0.036ms returns 0
T5248 000:239.547 JLINK_GetDebugInfo(0x01 = Unknown)
T5248 000:239.559   Value=0x00000000
T5248 000:239.577 - 0.035ms returns 0
T5248 000:239.590 JLINK_ReadMemU32(0xE000ED00, 0x1 Items)
T5248 000:239.604   CPU_ReadMem(4 bytes @ 0xE000ED00)
T5248 000:240.363   Data:  31 C2 2F 41
T5248 000:240.388   Debug reg: CPUID
T5248 000:240.404 - 0.820ms returns 1 (0x1)
T5248 000:240.418 JLINK_GetDebugInfo(0x10F = JLINKARM_DEBUG_INFO_HAS_CORTEX_M_SECURITY_EXT_INDEX)
T5248 000:240.432   Value=0x00000000
T5248 000:240.449 - 0.037ms returns 0
T5248 000:240.463 JLINK_HasError()
T5248 000:240.476 JLINK_SetResetType(JLINKARM_CM3_RESET_TYPE_NORMAL)
T5248 000:240.490 - 0.019ms returns JLINKARM_CM3_RESET_TYPE_NORMAL
T5248 000:240.502 JLINK_Reset()
T5248 000:240.520   CPU is running
T5248 000:240.541   CPU_WriteMem(4 bytes @ 0xE000EDF0)
T5248 000:241.080   CPU is running
T5248 000:241.103   CPU_WriteMem(4 bytes @ 0xE000EDFC)
T5248 000:241.698   Reset: Halt core after reset via DEMCR.VC_CORERESET.
T5248 000:243.021   Reset: Reset device via AIRCR.SYSRESETREQ.
T5248 000:243.046   CPU is running
T5248 000:243.065   CPU_WriteMem(4 bytes @ 0xE000ED0C)
T5248 000:297.422   CPU_ReadMem(4 bytes @ 0xE000EDF0)
T5248 000:298.068   CPU_ReadMem(4 bytes @ 0xE000EDF0)
T5248 000:298.797   CPU is running
T5248 000:298.820   CPU_WriteMem(4 bytes @ 0xE000EDF0)
T5248 000:299.398   CPU is running
T5248 000:299.421   CPU_WriteMem(4 bytes @ 0xE000EDFC)
T5248 000:305.829   CPU_ReadMem(4 bytes @ 0xE000EDF0)
T5248 000:308.504   CPU_WriteMem(4 bytes @ 0xE0002000)
T5248 000:309.089   CPU_ReadMem(4 bytes @ 0xE000EDFC)
T5248 000:309.706   CPU_ReadMem(4 bytes @ 0xE0001000)
T5248 000:310.373 - 69.883ms
T5248 000:310.398 JLINK_HasError()
T5248 000:310.414 JLINK_ReadReg(R15 (PC))
T5248 000:310.431 - 0.023ms returns 0x080001A0
T5248 000:310.445 JLINK_ReadReg(XPSR)
T5248 000:310.459 - 0.020ms returns 0x01000000
T5248 000:310.473 JLINK_Halt()
T5248 000:310.486 - 0.019ms returns 0x00
T5248 000:310.500 JLINK_ReadMemU32(0xE000EDF0, 0x1 Items)
T5248 000:310.517   CPU_ReadMem(4 bytes @ 0xE000EDF0)
T5248 000:311.057   Data:  03 00 03 00
T5248 000:311.079   Debug reg: DHCSR
T5248 000:311.098 - 0.603ms returns 1 (0x1)
T5248 000:311.113 JLINK_WriteU32_64(0xE000EDF0, 0xA05F0003)
T5248 000:311.128   Debug reg: DHCSR
T5248 000:311.155   CPU_WriteMem(4 bytes @ 0xE000EDF0)
T5248 000:311.707 - 0.603ms returns 0 (0x00000000)
T5248 000:311.726 JLINK_WriteU32_64(0xE000EDFC, 0x01000000)
T5248 000:311.739   Debug reg: DEMCR
T5248 000:311.759   CPU_WriteMem(4 bytes @ 0xE000EDFC)
T5248 000:312.412 - 0.702ms returns 0 (0x00000000)
T5248 000:312.463 JLINK_GetHWStatus(...)
T5248 000:313.083 - 0.632ms returns 0
T5248 000:313.118 JLINK_GetNumBPUnits(Type = 0xFFFFFF00)
T5248 000:313.133 - 0.021ms returns 0x06
T5248 000:313.146 JLINK_GetNumBPUnits(Type = 0xF0)
T5248 000:313.158 - 0.019ms returns 0x2000
T5248 000:313.172 JLINK_GetNumWPUnits()
T5248 000:313.184 - 0.017ms returns 4
T5248 000:313.204 JLINK_GetSpeed()
T5248 000:313.218 - 0.019ms returns 15000
T5248 000:313.235 JLINK_ReadMemU32(0xE000E004, 0x1 Items)
T5248 000:313.253   CPU_ReadMem(4 bytes @ 0xE000E004)
T5248 000:313.826   Data:  01 00 00 00
T5248 000:313.851 - 0.621ms returns 1 (0x1)
T5248 000:313.865 JLINK_ReadMemU32(0xE000E004, 0x1 Items)
T5248 000:313.883   CPU_ReadMem(4 bytes @ 0xE000E004)
T5248 000:314.443   Data:  01 00 00 00
T5248 000:314.467 - 0.608ms returns 1 (0x1)
T5248 000:314.482 JLINK_WriteMemEx(0xE0001000, 0x0000001C Bytes, Flags = 0x02000004)
T5248 000:314.495   Data:  01 00 00 00 00 00 00 00 00 00 00 00 00 00 00 00 ...
T5248 000:314.848   CPU_WriteMem(28 bytes @ 0xE0001000)
T5248 000:315.670 - 1.200ms returns 0x1C
T5248 000:315.691 JLINK_HasError()
T5248 000:315.704 JLINK_ReadReg(R15 (PC))
T5248 000:315.720 - 0.022ms returns 0x080001A0
T5248 000:315.734 JLINK_ReadReg(XPSR)
T5248 000:315.747 - 0.019ms returns 0x01000000
T5248 000:321.338 JLINK_ReadMemEx(0xE0001004, 0x4 Bytes, Flags = 0x02000000)
T5248 000:321.368   Data:  00 00 00 00
T5248 000:321.386   Debug reg: DWT_CYCCNT
T5248 000:321.403 - 0.072ms returns 4 (0x4)
T5248 000:378.291 JLINK_HasError()
T5248 000:378.337 JLINK_SetResetType(JLINKARM_CM3_RESET_TYPE_NORMAL)
T5248 000:378.351 - 0.019ms returns JLINKARM_CM3_RESET_TYPE_NORMAL
T5248 000:378.364 JLINK_Reset()
T5248 000:378.384   CPU_WriteMem(4 bytes @ 0xE000EDF0)
T5248 000:379.190   CPU_WriteMem(4 bytes @ 0xE000EDFC)
T5248 000:379.809   Reset: Halt core after reset via DEMCR.VC_CORERESET.
T5248 000:381.121   Reset: Reset device via AIRCR.SYSRESETREQ.
T5248 000:381.148   CPU_WriteMem(4 bytes @ 0xE000ED0C)
T5248 000:436.154   CPU_ReadMem(4 bytes @ 0xE000EDF0)
T5248 000:436.787   CPU_ReadMem(4 bytes @ 0xE000EDF0)
T5248 000:437.399   CPU_WriteMem(4 bytes @ 0xE000EDF0)
T5248 000:438.077   CPU_WriteMem(4 bytes @ 0xE000EDFC)
T5248 000:444.613   CPU_ReadMem(4 bytes @ 0xE000EDF0)
T5248 000:447.284   CPU_WriteMem(4 bytes @ 0xE0002000)
T5248 000:448.150   CPU_ReadMem(4 bytes @ 0xE000EDFC)
T5248 000:448.897   CPU_ReadMem(4 bytes @ 0xE0001000)
T5248 000:449.528 - 71.178ms
T5248 000:449.587 JLINK_HasError()
T5248 000:449.606 JLINK_ReadReg(R15 (PC))
T5248 000:449.621 - 0.022ms returns 0x080001A0
T5248 000:449.635 JLINK_ReadReg(XPSR)
T5248 000:449.647 - 0.018ms returns 0x01000000
T5248 000:450.377 JLINK_ReadMemEx(0x080001A0, 0x3C Bytes, Flags = 0x02000000)
T5248 000:450.402   CPU_ReadMem(128 bytes @ 0x08000180)
T5248 000:451.410    -- Updating C cache (128 bytes @ 0x08000180)
T5248 000:451.437    -- Read from C cache (60 bytes @ 0x080001A0)
T5248 000:451.455   Data:  09 48 80 47 09 48 00 47 FE E7 FE E7 FE E7 FE E7 ...
T5248 000:451.476 - 1.105ms returns 60 (0x3C)
T5248 000:451.490 JLINK_ReadMemEx(0x080001A0, 0x2 Bytes, Flags = 0x02000000)
T5248 000:451.505    -- Read from C cache (2 bytes @ 0x080001A0)
T5248 000:451.523   Data:  09 48
T5248 000:451.539 - 0.056ms returns 2 (0x2)
T5248 000:451.596 JLINK_ReadMemEx(0x080001A2, 0x2 Bytes, Flags = 0x02000000)
T5248 000:451.612    -- Read from C cache (2 bytes @ 0x080001A2)
T5248 000:451.629   Data:  80 47
T5248 000:451.648 - 0.058ms returns 2 (0x2)
T5248 001:683.339 JLINK_ReadMemEx(0x080001A2, 0x2 Bytes, Flags = 0x02000000)
T5248 001:683.390    -- Read from C cache (2 bytes @ 0x080001A2)
T5248 001:683.409   Data:  80 47
T5248 001:683.427 - 0.093ms returns 2 (0x2)
T5248 001:683.440 JLINK_ReadMemEx(0x080001A4, 0x3C Bytes, Flags = 0x02000000)
T5248 001:683.455    -- Read from C cache (60 bytes @ 0x080001A4)
T5248 001:683.473   Data:  09 48 00 47 FE E7 FE E7 FE E7 FE E7 FE E7 FE E7 ...
T5248 001:683.496 - 0.064ms returns 60 (0x3C)
T5248 001:683.516 JLINK_ReadMemEx(0x080001A4, 0x2 Bytes, Flags = 0x02000000)
T5248 001:683.533    -- Read from C cache (2 bytes @ 0x080001A4)
T5248 001:683.551   Data:  09 48
T5248 001:683.567 - 0.059ms returns 2 (0x2)
T5248 001:895.317 JLINK_HasError()
T5248 001:895.369 JLINK_ReadReg(R0)
T5248 001:895.843 - 0.484ms returns 0x0000001E
T5248 001:895.863 JLINK_ReadReg(R1)
T5248 001:895.877 - 0.020ms returns 0x08010024
T5248 001:895.890 JLINK_ReadReg(R2)
T5248 001:895.904 - 0.019ms returns 0x0000001E
T5248 001:895.916 JLINK_ReadReg(R3)
T5248 001:895.929 - 0.019ms returns 0x0000001E
T5248 001:895.943 JLINK_ReadReg(R4)
T5248 001:895.956 - 0.018ms returns 0x00000000
T5248 001:895.969 JLINK_ReadReg(R5)
T5248 001:895.982 - 0.019ms returns 0x2000082C
T5248 001:895.995 JLINK_ReadReg(R6)
T5248 001:896.009 - 0.019ms returns 0x00000000
T5248 001:896.022 JLINK_ReadReg(R7)
T5248 001:896.035 - 0.019ms returns 0x00000000
T5248 001:896.048 JLINK_ReadReg(R8)
T5248 001:896.065 - 0.023ms returns 0x00000000
T5248 001:896.079 JLINK_ReadReg(R9)
T5248 001:896.091 - 0.018ms returns 0x20000160
T5248 001:896.104 JLINK_ReadReg(R10)
T5248 001:896.118 - 0.020ms returns 0x08000914
T5248 001:896.131 JLINK_ReadReg(R11)
T5248 001:896.145 - 0.019ms returns 0x00000000
T5248 001:896.157 JLINK_ReadReg(R12)
T5248 001:896.169 - 0.018ms returns 0x2000086C
T5248 001:896.183 JLINK_ReadReg(R13 (SP))
T5248 001:896.197 - 0.020ms returns 0x20004890
T5248 001:896.213 JLINK_ReadReg(R14)
T5248 001:896.232 - 0.026ms returns 0xFFFFFFFF
T5248 001:896.247 JLINK_ReadReg(R15 (PC))
T5248 001:896.261 - 0.019ms returns 0x080001A0
T5248 001:896.273 JLINK_ReadReg(XPSR)
T5248 001:896.286 - 0.019ms returns 0x01000000
T5248 001:896.300 JLINK_ReadReg(MSP)
T5248 001:896.313 - 0.018ms returns 0x20004890
T5248 001:896.326 JLINK_ReadReg(PSP)
T5248 001:896.339 - 0.019ms returns 0x20001000
T5248 001:896.352 JLINK_ReadReg(CFBP)
T5248 001:896.365 - 0.019ms returns 0x00000000
T5248 001:896.383 JLINK_ReadMemEx(0x20000000, 0x1 Bytes, Flags = 0x02000000)
T5248 001:896.402   CPU_ReadMem(64 bytes @ 0x20000000)
T5248 001:897.145    -- Updating C cache (64 bytes @ 0x20000000)
T5248 001:897.166    -- Read from C cache (1 bytes @ 0x20000000)
T5248 001:897.184   Data:  55
T5248 001:897.205 - 0.829ms returns 1 (0x1)
T5248 001:901.696 JLINK_ReadMemEx(0x20000000, 0x1 Bytes, Flags = 0x02000000)
T5248 001:901.734    -- Read from C cache (1 bytes @ 0x20000000)
T5248 001:901.752   Data:  55
T5248 001:901.770 - 0.079ms returns 1 (0x1)
T5248 001:901.801 JLINK_ReadMemEx(0x20000000, 0x1 Bytes, Flags = 0x02000000)
T5248 001:901.818    -- Read from C cache (1 bytes @ 0x20000000)
T5248 001:901.836   Data:  55
T5248 001:901.853 - 0.057ms returns 1 (0x1)
T5248 001:904.430 JLINK_ReadMemEx(0x20000020, 0x2 Bytes, Flags = 0x02000000)
T5248 001:904.459    -- Read from C cache (2 bytes @ 0x20000020)
T5248 001:904.477   Data:  A5 5A
T5248 001:904.496 - 0.072ms returns 2 (0x2)
T5248 001:904.519 JLINK_ReadMemEx(0x20000020, 0x2 Bytes, Flags = 0x02000000)
T5248 001:904.533    -- Read from C cache (2 bytes @ 0x20000020)
T5248 001:904.558   Data:  A5 5A
T5248 001:904.575 - 0.062ms returns 2 (0x2)
T5248 001:904.598 JLINK_ReadMemEx(0x20000020, 0x2 Bytes, Flags = 0x02000000)
T5248 001:904.614    -- Read from C cache (2 bytes @ 0x20000020)
T5248 001:904.633   Data:  A5 5A
T5248 001:904.651 - 0.059ms returns 2 (0x2)
T5248 001:908.049 JLINK_ReadMemEx(0x20000024, 0x4 Bytes, Flags = 0x02000000)
T5248 001:908.102    -- Read from C cache (4 bytes @ 0x20000024)
T5248 001:908.122   Data:  21 43 65 87
T5248 001:908.140 - 0.096ms returns 4 (0x4)
T5248 001:908.166 JLINK_ReadMemEx(0x20000024, 0x4 Bytes, Flags = 0x02000000)
T5248 001:908.184    -- Read from C cache (4 bytes @ 0x20000024)
T5248 001:908.202   Data:  21 43 65 87
T5248 001:908.221 - 0.060ms returns 4 (0x4)
T5248 001:908.247 JLINK_ReadMemEx(0x20000024, 0x4 Bytes, Flags = 0x02000000)
T5248 001:908.261    -- Read from C cache (4 bytes @ 0x20000024)
T5248 001:908.280   Data:  21 43 65 87
T5248 001:908.297 - 0.056ms returns 4 (0x4)
T5248 001:915.595 JLINK_ReadMemEx(0x08010000, 0xEA Bytes, Flags = 0x02000000)
T5248 001:915.651   CPU_ReadMem(234 bytes @ 0x08010000)
T5248 001:916.420   Data:  55 A5 5A 21 43 65 87 01 02 03 04 05 06 07 08 09 ...
T5248 001:916.501 - 0.911ms returns 234 (0xEA)
T5248 001:917.550 JLINK_ReadMemEx(0x08010000, 0xEA Bytes, Flags = 0x02000000)
T5248 001:917.578   CPU_ReadMem(234 bytes @ 0x08010000)
T5248 001:918.663   Data:  55 A5 5A 21 43 65 87 01 02 03 04 05 06 07 08 09 ...
T5248 001:918.748 - 1.204ms returns 234 (0xEA)
T521C 001:928.777 JLINK_ReadMemEx(0x080001A0, 0x2 Bytes, Flags = 0x02000000)
T521C 001:928.827    -- Read from C cache (2 bytes @ 0x080001A0)
T521C 001:928.846   Data:  09 48
T521C 001:928.864 - 0.093ms returns 2 (0x2)
T521C 001:928.878 JLINK_HasError()
T521C 001:928.893 JLINK_SetBPEx(Addr = 0x080007AC, Type = 0xFFFFFFF2)
T521C 001:928.910 - 0.023ms returns 0x00000001
T521C 001:928.923 JLINK_HasError()
T521C 001:928.936 JLINK_HasError()
T521C 001:928.950 JLINK_Go()
T521C 001:928.988   CPU_WriteMem(4 bytes @ 0xE0002000)
T521C 001:929.377   CPU_ReadMem(4 bytes @ 0xE0001000)
T521C 001:930.113   CPU_WriteMem(4 bytes @ 0xE0002008)
T521C 001:930.144   CPU_WriteMem(4 bytes @ 0xE000200C)
T521C 001:930.162   CPU_WriteMem(4 bytes @ 0xE0002010)
T521C 001:930.182   CPU_WriteMem(4 bytes @ 0xE0002014)
T521C 001:930.200   CPU_WriteMem(4 bytes @ 0xE0002018)
T521C 001:930.218   CPU_WriteMem(4 bytes @ 0xE000201C)
T521C 001:931.130   CPU_WriteMem(4 bytes @ 0xE0001004)
T521C 001:932.686 - 3.758ms
T521C 002:033.518 JLINK_HasError()
T521C 002:033.550 JLINK_IsHalted()
T521C 002:035.600 - 2.065ms returns TRUE
T521C 002:035.627 JLINK_HasError()
T521C 002:035.643 JLINK_Halt()
T521C 002:035.656 - 0.018ms returns 0x00
T521C 002:035.671 JLINK_IsHalted()
T521C 002:035.684 - 0.019ms returns TRUE
T521C 002:035.698 JLINK_IsHalted()
T521C 002:035.711 - 0.020ms returns TRUE
T521C 002:035.726 JLINK_IsHalted()
T521C 002:035.739 - 0.020ms returns TRUE
T521C 002:035.754 JLINK_HasError()
T521C 002:035.769 JLINK_ReadReg(R15 (PC))
T521C 002:035.784 - 0.021ms returns 0x080007AC
T521C 002:035.799 JLINK_ReadReg(XPSR)
T521C 002:035.813 - 0.020ms returns 0x21000000
T521C 002:035.851 JLINK_HasError()
T521C 002:035.867 JLINK_ClrBPEx(BPHandle = 0x00000001)
T521C 002:035.882 - 0.021ms returns 0x00
T521C 002:035.895 JLINK_HasError()
T521C 002:035.909 JLINK_HasError()
T521C 002:035.922 JLINK_ReadMemU32(0xE000ED30, 0x1 Items)
T521C 002:035.940   CPU_ReadMem(4 bytes @ 0xE000ED30)
T521C 002:036.707   Data:  02 00 00 00
T521C 002:036.732 - 0.816ms returns 1 (0x1)
T521C 002:036.746 JLINK_ReadMemU32(0xE0001028, 0x1 Items)
T521C 002:036.764   CPU_ReadMem(4 bytes @ 0xE0001028)
T521C 002:037.367   Data:  00 00 00 00
T521C 002:037.392   Debug reg: DWT_FUNC[0]
T521C 002:037.409 - 0.669ms returns 1 (0x1)
T521C 002:037.425 JLINK_ReadMemU32(0xE0001038, 0x1 Items)
T521C 002:037.442   CPU_ReadMem(4 bytes @ 0xE0001038)
T521C 002:038.042   Data:  00 02 00 00
T521C 002:038.064   Debug reg: DWT_FUNC[1]
T521C 002:038.084 - 0.666ms returns 1 (0x1)
T521C 002:038.101 JLINK_ReadMemU32(0xE0001048, 0x1 Items)
T521C 002:038.117   CPU_ReadMem(4 bytes @ 0xE0001048)
T521C 002:038.712   Data:  00 00 00 00
T521C 002:038.741   Debug reg: DWT_FUNC[2]
T521C 002:038.759 - 0.664ms returns 1 (0x1)
T521C 002:038.774 JLINK_ReadMemU32(0xE0001058, 0x1 Items)
T521C 002:038.791   CPU_ReadMem(4 bytes @ 0xE0001058)
T521C 002:039.400   Data:  00 00 00 00
T521C 002:039.427   Debug reg: DWT_FUNC[3]
T521C 002:039.444 - 0.676ms returns 1 (0x1)
T521C 002:039.505 JLINK_HasError()
T521C 002:039.522 JLINK_ReadReg(R0)
T521C 002:039.538 - 0.022ms returns 0x20000890
T521C 002:039.551 JLINK_ReadReg(R1)
T521C 002:039.566 - 0.021ms returns 0x20002890
T521C 002:039.580 JLINK_ReadReg(R2)
T521C 002:039.593 - 0.019ms returns 0x20002890
T521C 002:039.607 JLINK_ReadReg(R3)
T521C 002:039.619 - 0.018ms returns 0x20002890
T521C 002:039.632 JLINK_ReadReg(R4)
T521C 002:039.645 - 0.020ms returns 0x00000000
T521C 002:039.659 JLINK_ReadReg(R5)
T521C 002:039.673 - 0.019ms returns 0x2000082C
T521C 002:039.686 JLINK_ReadReg(R6)
T521C 002:039.698 - 0.020ms returns 0x00000000
T521C 002:039.714 JLINK_ReadReg(R7)
T521C 002:039.727 - 0.019ms returns 0x00000000
T521C 002:039.740 JLINK_ReadReg(R8)
T521C 002:039.754 - 0.020ms returns 0x00000000
T521C 002:039.767 JLINK_ReadReg(R9)
T521C 002:039.780 - 0.019ms returns 0x20000160
T521C 002:039.793 JLINK_ReadReg(R10)
T521C 002:039.805 - 0.019ms returns 0x08000914
T521C 002:039.819 JLINK_ReadReg(R11)
T521C 002:039.832 - 0.019ms returns 0x00000000
T521C 002:039.846 JLINK_ReadReg(R12)
T521C 002:039.859 - 0.020ms returns 0x2000086C
T521C 002:039.872 JLINK_ReadReg(R13 (SP))
T521C 002:039.886 - 0.020ms returns 0x20004890
T521C 002:039.900 JLINK_ReadReg(R14)
T521C 002:039.913 - 0.019ms returns 0x0800018F
T521C 002:039.927 JLINK_ReadReg(R15 (PC))
T521C 002:039.941 - 0.019ms returns 0x080007AC
T521C 002:039.954 JLINK_ReadReg(XPSR)
T521C 002:039.968 - 0.020ms returns 0x21000000
T521C 002:039.981 JLINK_ReadReg(MSP)
T521C 002:039.995 - 0.020ms returns 0x20004890
T521C 002:040.008 JLINK_ReadReg(PSP)
T521C 002:040.021 - 0.020ms returns 0x20001000
T521C 002:040.036 JLINK_ReadReg(CFBP)
T521C 002:040.048 - 0.019ms returns 0x00000000
T5248 002:041.487 JLINK_HasError()
T5248 002:041.515 JLINK_ReadMemU32(0xE0001004, 0x1 Items)
T5248 002:041.535   CPU_ReadMem(4 bytes @ 0xE0001004)
T5248 002:042.157   Data:  2A 60 00 00
T5248 002:042.180   Debug reg: DWT_CYCCNT
T5248 002:042.198 - 0.690ms returns 1 (0x1)
T5248 002:042.281 JLINK_ReadMemEx(0x20000000, 0x1 Bytes, Flags = 0x02000000)
T5248 002:042.302   CPU_ReadMem(64 bytes @ 0x20000000)
T5248 002:042.964    -- Updating C cache (64 bytes @ 0x20000000)
T5248 002:042.989    -- Read from C cache (1 bytes @ 0x20000000)
T5248 002:043.010   Data:  00
T5248 002:043.029 - 0.753ms returns 1 (0x1)
T5248 002:044.120 JLINK_ReadMemEx(0x20000020, 0x2 Bytes, Flags = 0x02000000)
T5248 002:044.147    -- Read from C cache (2 bytes @ 0x20000020)
T5248 002:044.165   Data:  00 00
T5248 002:044.186 - 0.072ms returns 2 (0x2)
T5248 002:044.336 JLINK_ReadMemEx(0x20000024, 0x4 Bytes, Flags = 0x02000000)
T5248 002:044.357    -- Read from C cache (4 bytes @ 0x20000024)
T5248 002:044.376   Data:  00 00 00 00
T5248 002:044.394 - 0.064ms returns 4 (0x4)
T5248 002:044.577 JLINK_ReadMemEx(0x08010000, 0xEA Bytes, Flags = 0x02000000)
T5248 002:044.601   CPU_ReadMem(234 bytes @ 0x08010000)
T5248 002:045.441   Data:  55 A5 5A 21 43 65 87 01 02 03 04 05 06 07 08 09 ...
T5248 002:045.463 - 0.892ms returns 234 (0xEA)
T5248 002:047.953 JLINK_ReadMemEx(0x080007AC, 0x3C Bytes, Flags = 0x02000000)
T5248 002:047.985   CPU_ReadMem(128 bytes @ 0x08000780)
T5248 002:048.618    -- Updating C cache (128 bytes @ 0x08000780)
T5248 002:048.645    -- Read from C cache (60 bytes @ 0x080007AC)
T5248 002:048.664   Data:  FF F7 DC FF 00 F0 4A F8 40 F2 05 30 FF F7 F0 FE ...
T5248 002:048.681 - 0.734ms returns 60 (0x3C)
T5248 002:048.695 JLINK_ReadMemEx(0x080007AC, 0x2 Bytes, Flags = 0x02000000)
T5248 002:048.713    -- Read from C cache (2 bytes @ 0x080007AC)
T5248 002:048.736   Data:  FF F7
T5248 002:048.754 - 0.064ms returns 2 (0x2)
T5248 002:048.769 JLINK_ReadMemEx(0x080007AE, 0x2 Bytes, Flags = 0x02000000)
T5248 002:048.783    -- Read from C cache (2 bytes @ 0x080007AE)
T5248 002:048.801   Data:  DC FF
T5248 002:048.819 - 0.056ms returns 2 (0x2)
T5248 002:048.844 JLINK_ReadMemEx(0x080007B0, 0x3C Bytes, Flags = 0x02000000)
T5248 002:048.857    -- Read from C cache (60 bytes @ 0x080007B0)
T5248 002:048.875   Data:  00 F0 4A F8 40 F2 05 30 FF F7 F0 FE 4F F4 41 70 ...
T5248 002:048.894 - 0.055ms returns 60 (0x3C)
T5248 002:048.906 JLINK_ReadMemEx(0x080007B0, 0x2 Bytes, Flags = 0x02000000)
T5248 002:048.921    -- Read from C cache (2 bytes @ 0x080007B0)
T5248 002:048.939   Data:  00 F0
T5248 002:048.957 - 0.056ms returns 2 (0x2)
T5248 002:048.971 JLINK_ReadMemEx(0x080007B2, 0x2 Bytes, Flags = 0x02000000)
T5248 002:048.984    -- Read from C cache (2 bytes @ 0x080007B2)
T5248 002:049.002   Data:  4A F8
T5248 002:049.020 - 0.055ms returns 2 (0x2)
T521C 004:840.278 JLINK_ReadMemEx(0x080007AC, 0x2 Bytes, Flags = 0x02000000)
T521C 004:840.323    -- Read from C cache (2 bytes @ 0x080007AC)
T521C 004:840.344   Data:  FF F7
T521C 004:840.361 - 0.089ms returns 2 (0x2)
T521C 004:840.375 JLINK_HasError()
T521C 004:840.391 JLINK_SetBPEx(Addr = 0x080007B0, Type = 0xFFFFFFF2)
T521C 004:840.410 - 0.025ms returns 0x00000002
T521C 004:840.425 JLINK_HasError()
T521C 004:840.440 JLINK_HasError()
T521C 004:840.454 JLINK_Go()
T521C 004:841.133   CPU_WriteMem(4 bytes @ 0xE0002000)
T521C 004:841.712   CPU_ReadMem(4 bytes @ 0xE0001000)
T521C 004:842.367   CPU_WriteMem(4 bytes @ 0xE0002008)
T521C 004:843.752 - 3.311ms
T521C 004:943.897 JLINK_HasError()
T521C 004:943.937 JLINK_IsHalted()
T521C 004:945.713 - 1.824ms returns TRUE
T521C 004:945.771 JLINK_HasError()
T521C 004:945.784 JLINK_Halt()
T521C 004:945.796 - 0.017ms returns 0x00
T521C 004:945.808 JLINK_IsHalted()
T521C 004:945.821 - 0.019ms returns TRUE
T521C 004:945.835 JLINK_IsHalted()
T521C 004:945.847 - 0.018ms returns TRUE
T521C 004:945.859 JLINK_IsHalted()
T521C 004:945.871 - 0.018ms returns TRUE
T521C 004:945.888 JLINK_HasError()
T521C 004:945.904 JLINK_ReadReg(R15 (PC))
T521C 004:945.919 - 0.021ms returns 0x080007B0
T521C 004:945.933 JLINK_ReadReg(XPSR)
T521C 004:945.946 - 0.019ms returns 0x81000000
T521C 004:945.961 JLINK_HasError()
T521C 004:945.974 JLINK_ClrBPEx(BPHandle = 0x00000002)
T521C 004:945.989 - 0.020ms returns 0x00
T521C 004:946.002 JLINK_HasError()
T521C 004:946.015 JLINK_HasError()
T521C 004:946.028 JLINK_ReadMemU32(0xE000ED30, 0x1 Items)
T521C 004:946.045   CPU_ReadMem(4 bytes @ 0xE000ED30)
T521C 004:946.742   Data:  02 00 00 00
T521C 004:946.772 - 0.750ms returns 1 (0x1)
T521C 004:946.786 JLINK_ReadMemU32(0xE0001028, 0x1 Items)
T521C 004:946.803   CPU_ReadMem(4 bytes @ 0xE0001028)
T521C 004:947.410   Data:  00 00 00 00
T521C 004:947.435   Debug reg: DWT_FUNC[0]
T521C 004:947.457 - 0.677ms returns 1 (0x1)
T521C 004:947.471 JLINK_ReadMemU32(0xE0001038, 0x1 Items)
T521C 004:947.488   CPU_ReadMem(4 bytes @ 0xE0001038)
T521C 004:948.111   Data:  00 02 00 00
T521C 004:948.135   Debug reg: DWT_FUNC[1]
T521C 004:948.152 - 0.686ms returns 1 (0x1)
T521C 004:948.167 JLINK_ReadMemU32(0xE0001048, 0x1 Items)
T521C 004:948.183   CPU_ReadMem(4 bytes @ 0xE0001048)
T521C 004:948.734   Data:  00 00 00 00
T521C 004:948.757   Debug reg: DWT_FUNC[2]
T521C 004:948.774 - 0.614ms returns 1 (0x1)
T521C 004:948.789 JLINK_ReadMemU32(0xE0001058, 0x1 Items)
T521C 004:948.805   CPU_ReadMem(4 bytes @ 0xE0001058)
T521C 004:949.425   Data:  00 00 00 00
T521C 004:949.450   Debug reg: DWT_FUNC[3]
T521C 004:949.467 - 0.684ms returns 1 (0x1)
T521C 004:949.550 JLINK_HasError()
T521C 004:949.568 JLINK_ReadReg(R0)
T521C 004:949.582 - 0.019ms returns 0x00000080
T521C 004:949.595 JLINK_ReadReg(R1)
T521C 004:949.608 - 0.020ms returns 0x40022000
T521C 004:949.622 JLINK_ReadReg(R2)
T521C 004:949.635 - 0.019ms returns 0x20002890
T521C 004:949.654 JLINK_ReadReg(R3)
T521C 004:949.668 - 0.021ms returns 0x20002890
T521C 004:949.682 JLINK_ReadReg(R4)
T521C 004:949.695 - 0.019ms returns 0x00000000
T521C 004:949.708 JLINK_ReadReg(R5)
T521C 004:949.722 - 0.020ms returns 0x2000082C
T521C 004:949.735 JLINK_ReadReg(R6)
T521C 004:949.748 - 0.019ms returns 0x00000000
T521C 004:949.761 JLINK_ReadReg(R7)
T521C 004:949.773 - 0.018ms returns 0x00000000
T521C 004:949.787 JLINK_ReadReg(R8)
T521C 004:949.800 - 0.019ms returns 0x00000000
T521C 004:949.813 JLINK_ReadReg(R9)
T521C 004:949.827 - 0.020ms returns 0x20000160
T521C 004:949.841 JLINK_ReadReg(R10)
T521C 004:949.854 - 0.019ms returns 0x08000914
T521C 004:949.869 JLINK_ReadReg(R11)
T521C 004:949.887 - 0.025ms returns 0x00000000
T521C 004:949.902 JLINK_ReadReg(R12)
T521C 004:949.914 - 0.018ms returns 0x2000086C
T521C 004:949.927 JLINK_ReadReg(R13 (SP))
T521C 004:949.941 - 0.019ms returns 0x20004890
T521C 004:949.954 JLINK_ReadReg(R14)
T521C 004:949.967 - 0.019ms returns 0x080007B1
T521C 004:949.980 JLINK_ReadReg(R15 (PC))
T521C 004:949.993 - 0.019ms returns 0x080007B0
T521C 004:950.006 JLINK_ReadReg(XPSR)
T521C 004:950.018 - 0.018ms returns 0x81000000
T521C 004:950.033 JLINK_ReadReg(MSP)
T521C 004:950.046 - 0.019ms returns 0x20004890
T521C 004:950.059 JLINK_ReadReg(PSP)
T521C 004:950.073 - 0.019ms returns 0x20001000
T521C 004:950.085 JLINK_ReadReg(CFBP)
T521C 004:950.098 - 0.019ms returns 0x00000000
T5248 004:950.226 JLINK_HasError()
T5248 004:950.252 JLINK_ReadMemU32(0xE0001004, 0x1 Items)
T5248 004:950.269   CPU_ReadMem(4 bytes @ 0xE0001004)
T5248 004:951.112   Data:  4E 60 00 00
T5248 004:951.137   Debug reg: DWT_CYCCNT
T5248 004:951.155 - 0.908ms returns 1 (0x1)
T5248 004:951.548 JLINK_ReadMemEx(0x20000000, 0x1 Bytes, Flags = 0x02000000)
T5248 004:951.571   CPU_ReadMem(64 bytes @ 0x20000000)
T5248 004:952.432    -- Updating C cache (64 bytes @ 0x20000000)
T5248 004:952.461    -- Read from C cache (1 bytes @ 0x20000000)
T5248 004:952.479   Data:  00
T5248 004:952.496 - 0.953ms returns 1 (0x1)
T5248 004:953.530 JLINK_ReadMemEx(0x20000020, 0x2 Bytes, Flags = 0x02000000)
T5248 004:953.558    -- Read from C cache (2 bytes @ 0x20000020)
T5248 004:953.576   Data:  00 00
T5248 004:953.593 - 0.068ms returns 2 (0x2)
T5248 004:953.877 JLINK_ReadMemEx(0x20000024, 0x4 Bytes, Flags = 0x02000000)
T5248 004:953.899    -- Read from C cache (4 bytes @ 0x20000024)
T5248 004:953.917   Data:  00 00 00 00
T5248 004:953.934 - 0.063ms returns 4 (0x4)
T5248 004:954.109 JLINK_ReadMemEx(0x08010000, 0xEA Bytes, Flags = 0x02000000)
T5248 004:954.132   CPU_ReadMem(234 bytes @ 0x08010000)
T5248 004:954.937   Data:  55 A5 5A 21 43 65 87 01 02 03 04 05 06 07 08 09 ...
T5248 004:954.962 - 0.858ms returns 234 (0xEA)
T5248 004:958.498 JLINK_ReadMemEx(0x080007AC, 0x3C Bytes, Flags = 0x02000000)
T5248 004:958.542   CPU_ReadMem(128 bytes @ 0x08000780)
T5248 004:959.588    -- Updating C cache (128 bytes @ 0x08000780)
T5248 004:959.616    -- Read from C cache (60 bytes @ 0x080007AC)
T5248 004:959.635   Data:  FF F7 DC FF 00 F0 4A F8 40 F2 05 30 FF F7 F0 FE ...
T5248 004:959.653 - 1.160ms returns 60 (0x3C)
T5248 004:959.668 JLINK_ReadMemEx(0x080007AC, 0x2 Bytes, Flags = 0x02000000)
T5248 004:959.682    -- Read from C cache (2 bytes @ 0x080007AC)
T5248 004:959.701   Data:  FF F7
T5248 004:959.718 - 0.055ms returns 2 (0x2)
T5248 004:959.732 JLINK_ReadMemEx(0x080007AE, 0x2 Bytes, Flags = 0x02000000)
T5248 004:959.746    -- Read from C cache (2 bytes @ 0x080007AE)
T5248 004:959.765   Data:  DC FF
T5248 004:959.783 - 0.058ms returns 2 (0x2)
T5248 004:959.810 JLINK_ReadMemEx(0x080007B0, 0x3C Bytes, Flags = 0x02000000)
T5248 004:959.823    -- Read from C cache (60 bytes @ 0x080007B0)
T5248 004:959.843   Data:  00 F0 4A F8 40 F2 05 30 FF F7 F0 FE 4F F4 41 70 ...
T5248 004:959.860 - 0.056ms returns 60 (0x3C)
T5248 004:959.872 JLINK_ReadMemEx(0x080007B0, 0x2 Bytes, Flags = 0x02000000)
T5248 004:959.886    -- Read from C cache (2 bytes @ 0x080007B0)
T5248 004:959.904   Data:  00 F0
T5248 004:959.968 - 0.102ms returns 2 (0x2)
T5248 004:959.982 JLINK_ReadMemEx(0x080007B2, 0x2 Bytes, Flags = 0x02000000)
T5248 004:959.995    -- Read from C cache (2 bytes @ 0x080007B2)
T5248 004:960.014   Data:  4A F8
T5248 004:960.031 - 0.054ms returns 2 (0x2)
T521C 005:374.245 JLINK_ReadMemEx(0x080007B0, 0x2 Bytes, Flags = 0x02000000)
T521C 005:374.282    -- Read from C cache (2 bytes @ 0x080007B0)
T521C 005:374.301   Data:  00 F0
T521C 005:374.318 - 0.079ms returns 2 (0x2)
T521C 005:374.333 JLINK_HasError()
T521C 005:374.348 JLINK_SetBPEx(Addr = 0x080007B4, Type = 0xFFFFFFF2)
T521C 005:374.368 - 0.027ms returns 0x00000003
T521C 005:374.383 JLINK_HasError()
T521C 005:374.396 JLINK_HasError()
T521C 005:374.410 JLINK_Go()
T521C 005:374.428   CPU_WriteMem(4 bytes @ 0xE0002000)
T521C 005:375.277   CPU_ReadMem(4 bytes @ 0xE0001000)
T521C 005:375.917   CPU_WriteMem(4 bytes @ 0xE0002008)
T521C 005:377.233 - 2.840ms
T521C 005:477.648 JLINK_HasError()
T521C 005:477.738 JLINK_IsHalted()
T521C 005:479.722 - 2.001ms returns TRUE
T521C 005:479.749 JLINK_HasError()
T521C 005:479.762 JLINK_Halt()
T521C 005:479.778 - 0.021ms returns 0x00
T521C 005:479.791 JLINK_IsHalted()
T521C 005:479.804 - 0.019ms returns TRUE
T521C 005:479.818 JLINK_IsHalted()
T521C 005:479.830 - 0.017ms returns TRUE
T521C 005:479.842 JLINK_IsHalted()
T521C 005:479.855 - 0.018ms returns TRUE
T521C 005:479.868 JLINK_HasError()
T521C 005:479.882 JLINK_ReadReg(R15 (PC))
T521C 005:479.897 - 0.021ms returns 0x080007B4
T521C 005:479.911 JLINK_ReadReg(XPSR)
T521C 005:479.924 - 0.019ms returns 0x21000000
T521C 005:479.939 JLINK_HasError()
T521C 005:479.953 JLINK_ClrBPEx(BPHandle = 0x00000003)
T521C 005:479.968 - 0.020ms returns 0x00
T521C 005:479.981 JLINK_HasError()
T521C 005:479.995 JLINK_HasError()
T521C 005:480.008 JLINK_ReadMemU32(0xE000ED30, 0x1 Items)
T521C 005:480.025   CPU_ReadMem(4 bytes @ 0xE000ED30)
T521C 005:480.861   Data:  02 00 00 00
T521C 005:480.884 - 0.881ms returns 1 (0x1)
T521C 005:480.898 JLINK_ReadMemU32(0xE0001028, 0x1 Items)
T521C 005:480.912   CPU_ReadMem(4 bytes @ 0xE0001028)
T521C 005:481.483   Data:  00 00 00 00
T521C 005:481.506   Debug reg: DWT_FUNC[0]
T521C 005:481.523 - 0.632ms returns 1 (0x1)
T521C 005:481.538 JLINK_ReadMemU32(0xE0001038, 0x1 Items)
T521C 005:481.553   CPU_ReadMem(4 bytes @ 0xE0001038)
T521C 005:482.124   Data:  00 02 00 00
T521C 005:482.149   Debug reg: DWT_FUNC[1]
T521C 005:482.166 - 0.634ms returns 1 (0x1)
T521C 005:482.180 JLINK_ReadMemU32(0xE0001048, 0x1 Items)
T521C 005:482.197   CPU_ReadMem(4 bytes @ 0xE0001048)
T521C 005:482.818   Data:  00 00 00 00
T521C 005:482.843   Debug reg: DWT_FUNC[2]
T521C 005:482.860 - 0.687ms returns 1 (0x1)
T521C 005:482.876 JLINK_ReadMemU32(0xE0001058, 0x1 Items)
T521C 005:482.894   CPU_ReadMem(4 bytes @ 0xE0001058)
T521C 005:483.447   Data:  00 00 00 00
T521C 005:483.470   Debug reg: DWT_FUNC[3]
T521C 005:483.487 - 0.617ms returns 1 (0x1)
T521C 005:484.148 JLINK_HasError()
T521C 005:484.169 JLINK_ReadReg(R0)
T521C 005:484.183 - 0.021ms returns 0x00000200
T521C 005:484.198 JLINK_ReadReg(R1)
T521C 005:484.211 - 0.019ms returns 0x40022000
T521C 005:484.223 JLINK_ReadReg(R2)
T521C 005:484.237 - 0.020ms returns 0x20002890
T521C 005:484.251 JLINK_ReadReg(R3)
T521C 005:484.266 - 0.021ms returns 0x20002890
T521C 005:484.279 JLINK_ReadReg(R4)
T521C 005:484.291 - 0.019ms returns 0x00000000
T521C 005:484.306 JLINK_ReadReg(R5)
T521C 005:484.319 - 0.018ms returns 0x2000082C
T521C 005:484.331 JLINK_ReadReg(R6)
T521C 005:484.344 - 0.020ms returns 0x00000000
T521C 005:484.358 JLINK_ReadReg(R7)
T521C 005:484.371 - 0.018ms returns 0x00000000
T521C 005:484.384 JLINK_ReadReg(R8)
T521C 005:484.396 - 0.018ms returns 0x00000000
T521C 005:484.410 JLINK_ReadReg(R9)
T521C 005:484.423 - 0.019ms returns 0x20000160
T521C 005:484.435 JLINK_ReadReg(R10)
T521C 005:484.450 - 0.020ms returns 0x08000914
T521C 005:484.463 JLINK_ReadReg(R11)
T521C 005:484.477 - 0.020ms returns 0x00000000
T521C 005:484.490 JLINK_ReadReg(R12)
T521C 005:484.539 - 0.059ms returns 0x2000086C
T521C 005:484.557 JLINK_ReadReg(R13 (SP))
T521C 005:484.570 - 0.019ms returns 0x20004890
T521C 005:484.587 JLINK_ReadReg(R14)
T521C 005:484.605 - 0.024ms returns 0x080007B5
T521C 005:484.618 JLINK_ReadReg(R15 (PC))
T521C 005:484.632 - 0.020ms returns 0x080007B4
T521C 005:484.645 JLINK_ReadReg(XPSR)
T521C 005:484.657 - 0.019ms returns 0x21000000
T521C 005:484.672 JLINK_ReadReg(MSP)
T521C 005:484.685 - 0.019ms returns 0x20004890
T521C 005:484.698 JLINK_ReadReg(PSP)
T521C 005:484.712 - 0.019ms returns 0x20001000
T521C 005:484.724 JLINK_ReadReg(CFBP)
T521C 005:484.738 - 0.019ms returns 0x00000000
T5248 005:484.859 JLINK_HasError()
T5248 005:484.884 JLINK_ReadMemU32(0xE0001004, 0x1 Items)
T5248 005:484.901   CPU_ReadMem(4 bytes @ 0xE0001004)
T5248 005:485.703   Data:  72 60 00 00
T5248 005:485.728   Debug reg: DWT_CYCCNT
T5248 005:485.745 - 0.866ms returns 1 (0x1)
T5248 005:485.808 JLINK_ReadMemEx(0x20000000, 0x1 Bytes, Flags = 0x02000000)
T5248 005:485.830   CPU_ReadMem(64 bytes @ 0x20000000)
T5248 005:486.448    -- Updating C cache (64 bytes @ 0x20000000)
T5248 005:486.471    -- Read from C cache (1 bytes @ 0x20000000)
T5248 005:486.489   Data:  00
T5248 005:486.506 - 0.703ms returns 1 (0x1)
T5248 005:486.529 JLINK_ReadMemEx(0x20000020, 0x2 Bytes, Flags = 0x02000000)
T5248 005:486.545    -- Read from C cache (2 bytes @ 0x20000020)
T5248 005:486.563   Data:  00 00
T5248 005:486.586 - 0.062ms returns 2 (0x2)
T5248 005:486.602 JLINK_ReadMemEx(0x20000024, 0x4 Bytes, Flags = 0x02000000)
T5248 005:486.618    -- Read from C cache (4 bytes @ 0x20000024)
T5248 005:486.636   Data:  00 00 00 00
T5248 005:486.653 - 0.057ms returns 4 (0x4)
T5248 005:486.697 JLINK_ReadMemEx(0x08010000, 0xEA Bytes, Flags = 0x02000000)
T5248 005:486.714   CPU_ReadMem(234 bytes @ 0x08010000)
T5248 005:487.916   Data:  55 A5 5A 21 43 65 87 01 02 03 04 05 06 07 08 09 ...
T5248 005:487.941 - 1.249ms returns 234 (0xEA)
T5248 005:490.290 JLINK_ReadMemEx(0x080007B4, 0x3C Bytes, Flags = 0x02000000)
T5248 005:490.320   CPU_ReadMem(128 bytes @ 0x08000780)
T5248 005:491.119    -- Updating C cache (128 bytes @ 0x08000780)
T5248 005:491.143    -- Read from C cache (60 bytes @ 0x080007B4)
T5248 005:491.162   Data:  40 F2 05 30 FF F7 F0 FE 4F F4 41 70 FF F7 EC FE ...
T5248 005:491.179 - 0.894ms returns 60 (0x3C)
T5248 005:491.193 JLINK_ReadMemEx(0x080007B4, 0x2 Bytes, Flags = 0x02000000)
T5248 005:491.207    -- Read from C cache (2 bytes @ 0x080007B4)
T5248 005:491.226   Data:  40 F2
T5248 005:491.243 - 0.056ms returns 2 (0x2)
T5248 005:491.257 JLINK_ReadMemEx(0x080007B6, 0x2 Bytes, Flags = 0x02000000)
T5248 005:491.270    -- Read from C cache (2 bytes @ 0x080007B6)
T5248 005:491.287   Data:  05 30
T5248 005:491.304 - 0.054ms returns 2 (0x2)
T5248 005:491.323 JLINK_ReadMemEx(0x080007B8, 0x3C Bytes, Flags = 0x02000000)
T5248 005:491.337    -- Read from C cache (60 bytes @ 0x080007B8)
T5248 005:491.355   Data:  FF F7 F0 FE 4F F4 41 70 FF F7 EC FE 40 F2 02 30 ...
T5248 005:491.374 - 0.057ms returns 60 (0x3C)
T5248 005:491.387 JLINK_ReadMemEx(0x080007B8, 0x2 Bytes, Flags = 0x02000000)
T5248 005:491.400    -- Read from C cache (2 bytes @ 0x080007B8)
T5248 005:491.418   Data:  FF F7
T5248 005:491.435 - 0.055ms returns 2 (0x2)
T5248 005:491.449 JLINK_ReadMemEx(0x080007BA, 0x2 Bytes, Flags = 0x02000000)
T5248 005:491.462    -- Read from C cache (2 bytes @ 0x080007BA)
T5248 005:491.480   Data:  F0 FE
T5248 005:491.498 - 0.054ms returns 2 (0x2)
T5248 005:491.518 JLINK_ReadMemEx(0x080007BC, 0x3C Bytes, Flags = 0x02000000)
T5248 005:491.532    -- Read from C cache (60 bytes @ 0x080007BC)
T5248 005:491.550   Data:  4F F4 41 70 FF F7 EC FE 40 F2 02 30 FF F7 E8 FE ...
T5248 005:491.572 - 0.060ms returns 60 (0x3C)
T5248 005:491.586 JLINK_ReadMemEx(0x080007BC, 0x2 Bytes, Flags = 0x02000000)
T5248 005:491.599    -- Read from C cache (2 bytes @ 0x080007BC)
T5248 005:491.617   Data:  4F F4
T5248 005:491.635 - 0.054ms returns 2 (0x2)
T5248 005:491.647 JLINK_ReadMemEx(0x080007BE, 0x2 Bytes, Flags = 0x02000000)
T5248 005:491.700    -- Read from C cache (2 bytes @ 0x080007BE)
T5248 005:491.721   Data:  41 70
T5248 005:491.740 - 0.098ms returns 2 (0x2)
T521C 005:926.848 JLINK_ReadMemEx(0x080007B4, 0x2 Bytes, Flags = 0x02000000)
T521C 005:926.893    -- Read from C cache (2 bytes @ 0x080007B4)
T521C 005:926.914   Data:  40 F2
T521C 005:926.935 - 0.092ms returns 2 (0x2)
T521C 005:926.949 JLINK_HasError()
T521C 005:926.965 JLINK_Step()
T521C 005:926.983    -- Read from C cache (2 bytes @ 0x080007B4)
T521C 005:927.004   CPU_ReadMem(4 bytes @ 0xE000ED18)
T521C 005:927.488   CPU_WriteMem(4 bytes @ 0xE000ED18)
T521C 005:928.159   CPU_ReadMem(4 bytes @ 0xE000ED18)
T521C 005:928.813   CPU_WriteMem(4 bytes @ 0xE000ED18)
T521C 005:929.443    -- Read from C cache (2 bytes @ 0x080007B6)
T521C 005:929.474   -- Simulated
T521C 005:929.494 - 2.535ms returns 0
T521C 005:929.509 JLINK_HasError()
T521C 005:929.524 JLINK_ReadReg(R15 (PC))
T521C 005:929.540 - 0.022ms returns 0x080007B8
T521C 005:929.554 JLINK_ReadReg(XPSR)
T521C 005:929.566 - 0.018ms returns 0x21000000
T521C 005:929.584 JLINK_ReadMemEx(0x080007B6, 0x2 Bytes, Flags = 0x02000000)
T521C 005:929.599    -- Read from C cache (2 bytes @ 0x080007B6)
T521C 005:929.617   Data:  05 30
T521C 005:929.636 - 0.057ms returns 2 (0x2)
T521C 005:929.649 JLINK_ReadMemEx(0x080007B8, 0x3C Bytes, Flags = 0x02000000)
T521C 005:929.662    -- Read from C cache (60 bytes @ 0x080007B8)
T521C 005:929.683   Data:  FF F7 F0 FE 4F F4 41 70 FF F7 EC FE 40 F2 02 30 ...
T521C 005:929.700 - 0.056ms returns 60 (0x3C)
T521C 005:929.713 JLINK_ReadMemEx(0x080007B8, 0x2 Bytes, Flags = 0x02000000)
T521C 005:929.726    -- Read from C cache (2 bytes @ 0x080007B8)
T521C 005:929.743   Data:  FF F7
T521C 005:929.761 - 0.055ms returns 2 (0x2)
T521C 005:929.776 JLINK_HasError()
T521C 005:929.788 JLINK_SetBPEx(Addr = 0x080007BC, Type = 0xFFFFFFF2)
T521C 005:929.803 - 0.021ms returns 0x00000004
T521C 005:929.817 JLINK_HasError()
T521C 005:929.830 JLINK_HasError()
T521C 005:929.843 JLINK_Go()
T521C 005:929.860   CPU_WriteMem(4 bytes @ 0xE0002000)
T521C 005:930.647   CPU_ReadMem(4 bytes @ 0xE0001000)
T521C 005:931.360   CPU_WriteMem(4 bytes @ 0xE0002008)
T521C 005:932.003   CPU_WriteMem(4 bytes @ 0xE0001004)
T521C 005:933.985 - 4.155ms
T521C 006:034.306 JLINK_HasError()
T521C 006:034.350 JLINK_IsHalted()
T521C 006:036.745 - 2.411ms returns TRUE
T521C 006:036.771 JLINK_HasError()
T521C 006:036.785 JLINK_Halt()
T521C 006:036.798 - 0.020ms returns 0x00
T521C 006:036.812 JLINK_IsHalted()
T521C 006:036.827 - 0.022ms returns TRUE
T521C 006:036.842 JLINK_IsHalted()
T521C 006:036.855 - 0.019ms returns TRUE
T521C 006:036.868 JLINK_IsHalted()
T521C 006:036.881 - 0.019ms returns TRUE
T521C 006:036.895 JLINK_HasError()
T521C 006:036.909 JLINK_ReadReg(R15 (PC))
T521C 006:036.928 - 0.025ms returns 0x080007BC
T521C 006:036.942 JLINK_ReadReg(XPSR)
T521C 006:036.956 - 0.020ms returns 0x01000000
T521C 006:036.971 JLINK_HasError()
T521C 006:036.985 JLINK_ClrBPEx(BPHandle = 0x00000004)
T521C 006:036.997 - 0.018ms returns 0x00
T521C 006:037.010 JLINK_HasError()
T521C 006:037.025 JLINK_HasError()
T521C 006:037.039 JLINK_ReadMemU32(0xE000ED30, 0x1 Items)
T521C 006:037.056   CPU_ReadMem(4 bytes @ 0xE000ED30)
T521C 006:037.848   Data:  02 00 00 00
T521C 006:037.875 - 0.842ms returns 1 (0x1)
T521C 006:037.890 JLINK_ReadMemU32(0xE0001028, 0x1 Items)
T521C 006:037.907   CPU_ReadMem(4 bytes @ 0xE0001028)
T521C 006:038.437   Data:  00 00 00 00
T521C 006:038.465   Debug reg: DWT_FUNC[0]
T521C 006:038.482 - 0.599ms returns 1 (0x1)
T521C 006:038.498 JLINK_ReadMemU32(0xE0001038, 0x1 Items)
T521C 006:038.515   CPU_ReadMem(4 bytes @ 0xE0001038)
T521C 006:039.173   Data:  00 02 00 00
T521C 006:039.199   Debug reg: DWT_FUNC[1]
T521C 006:039.218 - 0.726ms returns 1 (0x1)
T521C 006:039.232 JLINK_ReadMemU32(0xE0001048, 0x1 Items)
T521C 006:039.249   CPU_ReadMem(4 bytes @ 0xE0001048)
T521C 006:039.879   Data:  00 00 00 00
T521C 006:039.906   Debug reg: DWT_FUNC[2]
T521C 006:039.927 - 0.701ms returns 1 (0x1)
T521C 006:039.942 JLINK_ReadMemU32(0xE0001058, 0x1 Items)
T521C 006:039.959   CPU_ReadMem(4 bytes @ 0xE0001058)
T521C 006:040.519   Data:  00 00 00 00
T521C 006:040.545   Debug reg: DWT_FUNC[3]
T521C 006:040.563 - 0.627ms returns 1 (0x1)
T521C 006:040.683 JLINK_HasError()
T521C 006:040.707 JLINK_ReadReg(R0)
T521C 006:040.721 - 0.020ms returns 0x00000305
T521C 006:040.734 JLINK_ReadReg(R1)
T521C 006:040.748 - 0.020ms returns 0x00000020
T521C 006:040.761 JLINK_ReadReg(R2)
T521C 006:040.774 - 0.019ms returns 0x4002200C
T521C 006:040.788 JLINK_ReadReg(R3)
T521C 006:040.800 - 0.018ms returns 0x40022000
T521C 006:040.813 JLINK_ReadReg(R4)
T521C 006:040.828 - 0.021ms returns 0x00000000
T521C 006:040.841 JLINK_ReadReg(R5)
T521C 006:040.855 - 0.019ms returns 0x2000082C
T521C 006:040.868 JLINK_ReadReg(R6)
T521C 006:040.880 - 0.019ms returns 0x00000000
T521C 006:040.894 JLINK_ReadReg(R7)
T521C 006:040.906 - 0.018ms returns 0x00000000
T521C 006:040.919 JLINK_ReadReg(R8)
T521C 006:040.932 - 0.019ms returns 0x00000000
T521C 006:040.945 JLINK_ReadReg(R9)
T521C 006:040.958 - 0.018ms returns 0x20000160
T521C 006:040.970 JLINK_ReadReg(R10)
T521C 006:040.983 - 0.019ms returns 0x08000914
T521C 006:040.996 JLINK_ReadReg(R11)
T521C 006:041.010 - 0.019ms returns 0x00000000
T521C 006:041.023 JLINK_ReadReg(R12)
T521C 006:041.036 - 0.019ms returns 0x2000086C
T521C 006:041.049 JLINK_ReadReg(R13 (SP))
T521C 006:041.062 - 0.019ms returns 0x20004890
T521C 006:041.076 JLINK_ReadReg(R14)
T521C 006:041.088 - 0.019ms returns 0x080007BD
T521C 006:041.102 JLINK_ReadReg(R15 (PC))
T521C 006:041.114 - 0.018ms returns 0x080007BC
T521C 006:041.127 JLINK_ReadReg(XPSR)
T521C 006:041.140 - 0.018ms returns 0x01000000
T521C 006:041.153 JLINK_ReadReg(MSP)
T521C 006:041.166 - 0.019ms returns 0x20004890
T521C 006:041.179 JLINK_ReadReg(PSP)
T521C 006:041.193 - 0.020ms returns 0x20001000
T521C 006:041.207 JLINK_ReadReg(CFBP)
T521C 006:041.219 - 0.018ms returns 0x00000000
T5248 006:041.345 JLINK_HasError()
T5248 006:041.370 JLINK_ReadMemU32(0xE0001004, 0x1 Items)
T5248 006:041.387   CPU_ReadMem(4 bytes @ 0xE0001004)
T5248 006:042.187   Data:  89 60 00 00
T5248 006:042.210   Debug reg: DWT_CYCCNT
T5248 006:042.228 - 0.864ms returns 1 (0x1)
T5248 006:042.296 JLINK_ReadMemEx(0x20000000, 0x1 Bytes, Flags = 0x02000000)
T5248 006:042.316   CPU_ReadMem(64 bytes @ 0x20000000)
T5248 006:042.987    -- Updating C cache (64 bytes @ 0x20000000)
T5248 006:043.011    -- Read from C cache (1 bytes @ 0x20000000)
T5248 006:043.028   Data:  00
T5248 006:043.047 - 0.757ms returns 1 (0x1)
T5248 006:043.072 JLINK_ReadMemEx(0x20000020, 0x2 Bytes, Flags = 0x02000000)
T5248 006:043.089    -- Read from C cache (2 bytes @ 0x20000020)
T5248 006:043.107   Data:  00 00
T5248 006:043.124 - 0.058ms returns 2 (0x2)
T5248 006:043.142 JLINK_ReadMemEx(0x20000024, 0x4 Bytes, Flags = 0x02000000)
T5248 006:043.157    -- Read from C cache (4 bytes @ 0x20000024)
T5248 006:043.175   Data:  00 00 00 00
T5248 006:043.193 - 0.057ms returns 4 (0x4)
T5248 006:043.239 JLINK_ReadMemEx(0x08010000, 0xEA Bytes, Flags = 0x02000000)
T5248 006:043.258   CPU_ReadMem(234 bytes @ 0x08010000)
T5248 006:044.495   Data:  55 A5 5A 21 43 65 87 01 02 03 04 05 06 07 08 09 ...
T5248 006:044.527 - 1.293ms returns 234 (0xEA)
T5248 006:049.979 JLINK_ReadMemEx(0x080007BC, 0x3C Bytes, Flags = 0x02000000)
T5248 006:050.018   CPU_ReadMem(128 bytes @ 0x08000780)
T5248 006:050.920    -- Updating C cache (128 bytes @ 0x08000780)
T5248 006:050.945    -- Read from C cache (60 bytes @ 0x080007BC)
T5248 006:050.963   Data:  4F F4 41 70 FF F7 EC FE 40 F2 02 30 FF F7 E8 FE ...
T5248 006:050.980 - 1.008ms returns 60 (0x3C)
T5248 006:050.994 JLINK_ReadMemEx(0x080007BC, 0x2 Bytes, Flags = 0x02000000)
T5248 006:051.007    -- Read from C cache (2 bytes @ 0x080007BC)
T5248 006:051.026   Data:  4F F4
T5248 006:051.044 - 0.054ms returns 2 (0x2)
T5248 006:051.057 JLINK_ReadMemEx(0x080007BE, 0x2 Bytes, Flags = 0x02000000)
T5248 006:051.070    -- Read from C cache (2 bytes @ 0x080007BE)
T5248 006:051.093   Data:  41 70
T5248 006:051.111 - 0.060ms returns 2 (0x2)
T5248 006:051.130 JLINK_ReadMemEx(0x080007C0, 0x3C Bytes, Flags = 0x02000000)
T5248 006:051.143    -- Read from C cache (60 bytes @ 0x080007C0)
T5248 006:051.163   Data:  FF F7 EC FE 40 F2 02 30 FF F7 E8 FE 18 48 FF F7 ...
T5248 006:051.180 - 0.055ms returns 60 (0x3C)
T5248 006:051.192 JLINK_ReadMemEx(0x080007C0, 0x2 Bytes, Flags = 0x02000000)
T5248 006:051.207    -- Read from C cache (2 bytes @ 0x080007C0)
T5248 006:051.225   Data:  FF F7
T5248 006:051.243 - 0.056ms returns 2 (0x2)
T5248 006:051.255 JLINK_ReadMemEx(0x080007C2, 0x2 Bytes, Flags = 0x02000000)
T5248 006:051.267    -- Read from C cache (2 bytes @ 0x080007C2)
T5248 006:051.286   Data:  EC FE
T5248 006:051.303 - 0.053ms returns 2 (0x2)
T5248 006:051.323 JLINK_ReadMemEx(0x080007C4, 0x3C Bytes, Flags = 0x02000000)
T5248 006:051.337    -- Read from C cache (60 bytes @ 0x080007C4)
T5248 006:051.355   Data:  40 F2 02 30 FF F7 E8 FE 18 48 FF F7 55 FF 55 21 ...
T5248 006:051.374 - 0.057ms returns 60 (0x3C)
T5248 006:051.387 JLINK_ReadMemEx(0x080007C4, 0x2 Bytes, Flags = 0x02000000)
T5248 006:051.400    -- Read from C cache (2 bytes @ 0x080007C4)
T5248 006:051.418   Data:  40 F2
T5248 006:051.435 - 0.053ms returns 2 (0x2)
T5248 006:051.448 JLINK_ReadMemEx(0x080007C6, 0x2 Bytes, Flags = 0x02000000)
T5248 006:051.462    -- Read from C cache (2 bytes @ 0x080007C6)
T5248 006:051.479   Data:  02 30
T5248 006:051.498 - 0.055ms returns 2 (0x2)
T521C 006:470.776 JLINK_ReadMemEx(0x080007BC, 0x2 Bytes, Flags = 0x02000000)
T521C 006:470.818    -- Read from C cache (2 bytes @ 0x080007BC)
T521C 006:470.837   Data:  4F F4
T521C 006:470.855 - 0.085ms returns 2 (0x2)
T521C 006:470.870 JLINK_HasError()
